! TTR506A,Tektronix,B010426,Application version 2.0.1.4ead5a2e Firmware version 066185400
! 
! Freq ReS11 ImS11
# HZ S RI R 50
           2e+09     0.099096666     -0.80375392
     2.00125e+09      0.09336681     -0.80539813
      2.0025e+09     0.087521388     -0.80590715
     2.00375e+09     0.080813162     -0.80507997
       2.005e+09     0.077716674     -0.80348589
     2.00625e+09     0.072785523     -0.80387305
      2.0075e+09     0.066431369     -0.80260606
     2.00875e+09     0.060170422     -0.80321805
        2.01e+09     0.053563179      -0.8024571
     2.01125e+09     0.049051829     -0.80124335
      2.0125e+09     0.045291279     -0.80292595
     2.01375e+09     0.038435691     -0.79959532
       2.015e+09     0.032017115     -0.79966447
     2.01625e+09     0.028533508     -0.80120378
      2.0175e+09     0.022735233     -0.80102896
     2.01875e+09     0.018938346     -0.79805717
        2.02e+09     0.012316178     -0.80034875
     2.02125e+09     0.006834539     -0.79916095
      2.0225e+09     0.003238049     -0.79835286
     2.02375e+09   -0.0030909349     -0.79553979
       2.025e+09   -0.0083715757     -0.79685963
     2.02625e+09    -0.012284926     -0.79619229
      2.0275e+09    -0.020190442     -0.79594031
     2.02875e+09    -0.025586425     -0.79513603
        2.03e+09    -0.029155227     -0.79316251
     2.03125e+09    -0.035426993     -0.78994019
      2.0325e+09    -0.039536837     -0.79056073
     2.03375e+09    -0.046872199     -0.78990399
       2.035e+09     -0.05108908      -0.7878035
     2.03625e+09    -0.058648184      -0.7887349
      2.0375e+09    -0.060600233     -0.78551894
     2.03875e+09    -0.066939717     -0.78467118
        2.04e+09    -0.073664399     -0.78458459
     2.04125e+09    -0.079056816     -0.78329515
      2.0425e+09    -0.082826201     -0.78095325
     2.04375e+09      -0.0888499     -0.77896246
       2.045e+09    -0.094934493     -0.77629126
     2.04625e+09    -0.099617403     -0.77615315
      2.0475e+09     -0.10505837     -0.77438025
     2.04875e+09     -0.10945348     -0.77322468
        2.05e+09     -0.11600379       -0.771976
     2.05125e+09     -0.12061935      -0.7703643
      2.0525e+09     -0.12665476     -0.76744785
     2.05375e+09     -0.13197148      -0.7653962
       2.055e+09      -0.1356537     -0.76485223
     2.05625e+09     -0.14137305     -0.76184285
      2.0575e+09     -0.14736319     -0.76065768
     2.05875e+09     -0.15150923     -0.75918348
        2.06e+09     -0.15722361     -0.75695865
     2.06125e+09     -0.16476092     -0.75490083
      2.0625e+09     -0.16950615     -0.75186893
     2.06375e+09     -0.17314353     -0.75014171
       2.065e+09     -0.17784737     -0.74815949
     2.06625e+09     -0.18350852     -0.74637034
      2.0675e+09     -0.19106614     -0.74370822
     2.06875e+09     -0.19467373     -0.74058898
        2.07e+09     -0.19950106     -0.73965439
     2.07125e+09     -0.20583907     -0.73583241
      2.0725e+09     -0.21139813     -0.73223155
     2.07375e+09     -0.21551503     -0.73008103
       2.075e+09     -0.21874294     -0.72889527
     2.07625e+09     -0.22504632     -0.72380173
      2.0775e+09     -0.23072928     -0.72105969
     2.07875e+09     -0.23452192     -0.71797464
        2.08e+09     -0.23982154     -0.71537382
     2.08125e+09     -0.24366823     -0.70979844
      2.0825e+09     -0.24954187     -0.70879442
     2.08375e+09     -0.25378288     -0.70428252
       2.085e+09     -0.25937733     -0.70130713
     2.08625e+09     -0.26357446     -0.69681679
      2.0875e+09     -0.26870917     -0.69290638
     2.08875e+09     -0.27148577     -0.69141526
        2.09e+09     -0.27464573     -0.68738561
     2.09125e+09     -0.28021284     -0.68464656
      2.0925e+09     -0.28262949     -0.68143786
     2.09375e+09     -0.28738873     -0.67723797
       2.095e+09     -0.29188315     -0.67482149
     2.09625e+09     -0.29503885     -0.67091976
      2.0975e+09     -0.30041204     -0.66694238
     2.09875e+09     -0.30260337     -0.66442994
         2.1e+09     -0.30722943     -0.65903056
     2.10125e+09     -0.31076011     -0.65707682
      2.1025e+09     -0.31379736     -0.65504607
     2.10375e+09     -0.31832906     -0.65085379
       2.105e+09     -0.32271376     -0.64735766
     2.10625e+09     -0.32627309     -0.64449638
      2.1075e+09     -0.32820813     -0.64057639
     2.10875e+09      -0.3330235     -0.63573533
        2.11e+09     -0.33799323     -0.63503611
     2.11125e+09     -0.34105011     -0.62993062
      2.1125e+09     -0.34422211     -0.62649788
     2.11375e+09     -0.34752471     -0.62260456
       2.115e+09     -0.35010177     -0.61827407
     2.11625e+09     -0.35348516      -0.6157048
      2.1175e+09     -0.35711651     -0.61298324
     2.11875e+09     -0.36135857     -0.60666683
        2.12e+09     -0.36356427      -0.6045378
     2.12125e+09     -0.36636298     -0.60024639
      2.1225e+09     -0.37067542     -0.59820084
     2.12375e+09     -0.37261104     -0.59234097
       2.125e+09     -0.37540798     -0.59086492
     2.12625e+09     -0.37894263     -0.58694981
      2.1275e+09     -0.38294379     -0.58311005
     2.12875e+09     -0.38534908     -0.58028616
        2.13e+09     -0.38824617      -0.5764786
     2.13125e+09     -0.38986135     -0.57184812
      2.1325e+09     -0.39413597     -0.56890001
     2.13375e+09     -0.39695156     -0.56632466
       2.135e+09     -0.39998119     -0.56254614
     2.13625e+09     -0.40374359     -0.55775876
      2.1375e+09     -0.40690556     -0.55592337
     2.13875e+09     -0.41017355     -0.55136132
        2.14e+09     -0.41160875     -0.54621441
     2.14125e+09     -0.41585375     -0.54455893
      2.1425e+09     -0.41634784     -0.53898181
     2.14375e+09     -0.41855745      -0.5363399
       2.145e+09     -0.42181403     -0.53215575
     2.14625e+09     -0.42620616      -0.5280938
      2.1475e+09     -0.42791822     -0.52394029
     2.14875e+09     -0.43024443     -0.52005503
        2.15e+09     -0.43269813     -0.51766105
     2.15125e+09     -0.43681797     -0.51329988
      2.1525e+09     -0.43904937     -0.51098579
     2.15375e+09     -0.43980309     -0.50644643
       2.155e+09     -0.44288162     -0.50298987
     2.15625e+09     -0.44533057     -0.49927686
      2.1575e+09     -0.44813888     -0.49600942
     2.15875e+09     -0.45261012     -0.49225626
        2.16e+09     -0.45333618     -0.48779665
     2.16125e+09     -0.45722582     -0.48469227
      2.1625e+09      -0.4611504     -0.48183289
     2.16375e+09     -0.46157154      -0.4754175
       2.165e+09     -0.46526021      -0.4720346
     2.16625e+09     -0.46851144     -0.46661988
      2.1675e+09     -0.47014581     -0.46320592
     2.16875e+09     -0.47130692     -0.45880142
        2.17e+09     -0.47239271     -0.45527364
     2.17125e+09     -0.47648892      -0.4516009
      2.1725e+09     -0.47896103     -0.44640608
     2.17375e+09     -0.48066125     -0.44225217
       2.175e+09     -0.48294924     -0.43846738
     2.17625e+09     -0.48605223     -0.43522323
      2.1775e+09     -0.48607149     -0.43058996
     2.17875e+09     -0.48868005     -0.42577495
        2.18e+09      -0.4909008     -0.42226201
     2.18125e+09     -0.49310529     -0.41880264
      2.1825e+09     -0.49522701     -0.41295563
     2.18375e+09     -0.49635297     -0.41051685
       2.185e+09     -0.49994612     -0.40655928
     2.18625e+09     -0.50078075     -0.39995937
      2.1875e+09     -0.50244807     -0.39679159
     2.18875e+09     -0.50396306     -0.39343338
        2.19e+09     -0.50441832     -0.38785793
     2.19125e+09     -0.50581121      -0.3835389
      2.1925e+09     -0.50865789     -0.37908059
     2.19375e+09     -0.50951742     -0.37593405
       2.195e+09     -0.50998292     -0.37072833
     2.19625e+09     -0.51209047     -0.36529884
      2.1975e+09     -0.51302446     -0.36254297
     2.19875e+09       -0.514608     -0.35676749
         2.2e+09        -0.51619     -0.35200504
     2.20125e+09     -0.51644708     -0.34698998
      2.2025e+09      -0.5171966     -0.34464097
     2.20375e+09     -0.51798383     -0.34013446
       2.205e+09     -0.51914531     -0.33653258
     2.20625e+09     -0.51929162     -0.33260191
      2.2075e+09     -0.52118081     -0.32664418
     2.20875e+09     -0.52306114     -0.32476287
        2.21e+09     -0.52263309     -0.32029453
     2.21125e+09     -0.52395727     -0.31577751
      2.2125e+09      -0.5260236     -0.31264447
     2.21375e+09      -0.5257028     -0.30846829
       2.215e+09      -0.5279414     -0.30522908
     2.21625e+09     -0.52926621     -0.30228004
      2.2175e+09     -0.53076333     -0.29699633
     2.21875e+09     -0.53116156      -0.2938271
        2.22e+09      -0.5325691     -0.28879717
     2.22125e+09     -0.53476947     -0.28610125
      2.2225e+09     -0.53629853     -0.28215624
     2.22375e+09     -0.53705948     -0.27780315
       2.225e+09     -0.53822358     -0.27305417
     2.22625e+09     -0.54095646      -0.2673651
      2.2275e+09     -0.54123177     -0.26371472
     2.22875e+09     -0.54241322     -0.25883941
        2.23e+09     -0.54244165     -0.25453841
     2.23125e+09     -0.54466984      -0.2497025
      2.2325e+09     -0.54437024     -0.24391702
     2.23375e+09     -0.54585888     -0.23877368
       2.235e+09     -0.54647493     -0.23294386
     2.23625e+09     -0.54672885     -0.22952383
      2.2375e+09     -0.54674325     -0.22466908
     2.23875e+09     -0.54712708     -0.22059248
        2.24e+09     -0.54786593     -0.21672799
     2.24125e+09     -0.54873992     -0.21094293
      2.2425e+09     -0.54796128     -0.20661551
     2.24375e+09     -0.54726169     -0.20143884
       2.245e+09     -0.54907616     -0.19628549
     2.24625e+09     -0.54872675     -0.19234624
      2.2475e+09     -0.54911818     -0.18828829
     2.24875e+09     -0.54880652     -0.18302783
        2.25e+09     -0.54928739     -0.17778621
     2.25125e+09     -0.54880092     -0.17355174
      2.2525e+09     -0.54879495     -0.17003018
     2.25375e+09     -0.54898017     -0.16468469
       2.255e+09     -0.54928124       -0.159026
     2.25625e+09     -0.54861062     -0.15579457
      2.2575e+09     -0.54917719     -0.15049807
     2.25875e+09     -0.54839049     -0.14611807
        2.26e+09     -0.54785045     -0.14020368
     2.26125e+09      -0.5471396     -0.13506716
      2.2625e+09     -0.54727328     -0.12985687
     2.26375e+09     -0.54681421     -0.12469461
       2.265e+09     -0.54676556     -0.12047941
     2.26625e+09      -0.5451954     -0.11454979
      2.2675e+09     -0.54383948     -0.10931433
     2.26875e+09     -0.54286129     -0.10512772
        2.27e+09      -0.5428236     -0.09930729
     2.27125e+09     -0.54079339    -0.095656157
      2.2725e+09     -0.53903643    -0.090573786
     2.27375e+09     -0.53700099    -0.086755917
       2.275e+09     -0.53638388    -0.081655117
     2.27625e+09     -0.53363361    -0.076949163
      2.2775e+09     -0.53221804    -0.072647204
     2.27875e+09     -0.53029808    -0.068224557
        2.28e+09     -0.52845273    -0.063495876
     2.28125e+09     -0.52657485    -0.059557536
      2.2825e+09     -0.52492927    -0.056844836
     2.28375e+09     -0.52364424     -0.05228411
       2.285e+09     -0.52300901    -0.048183476
     2.28625e+09      -0.5211806    -0.044411894
      2.2875e+09     -0.51962626    -0.040137772
     2.28875e+09     -0.51778966    -0.035985361
        2.29e+09     -0.51549271    -0.031265782
     2.29125e+09     -0.51555936    -0.027229342
      2.2925e+09     -0.51305698    -0.023334166
     2.29375e+09     -0.51021774    -0.018806861
       2.295e+09     -0.50902171    -0.014176694
     2.29625e+09      -0.5063427     -0.01003511
      2.2975e+09     -0.50481268   -0.0054543352
     2.29875e+09      -0.5019619   -0.0028380548
         2.3e+09     -0.49893849    0.0014682948
     2.30125e+09      -0.4973543    0.0054292424
      2.3025e+09     -0.49453853    0.0085112201
     2.30375e+09     -0.49176715     0.013320736
       2.305e+09     -0.48886079     0.015437636
     2.30625e+09     -0.48631745     0.019228783
      2.3075e+09     -0.48347798      0.02310612
     2.30875e+09     -0.48044265     0.026322496
        2.31e+09     -0.47715798     0.029373664
     2.31125e+09     -0.47543298     0.032559495
      2.3125e+09     -0.47225235     0.034955787
     2.31375e+09     -0.47048486     0.037929549
       2.315e+09     -0.46891017     0.040506543
     2.31625e+09     -0.46669197     0.043485147
      2.3175e+09     -0.46309735     0.046193569
     2.31875e+09     -0.46176068       0.0490386
        2.32e+09     -0.45970581     0.051569647
     2.32125e+09     -0.45706368     0.055186678
      2.3225e+09      -0.4550981      0.05849301
     2.32375e+09     -0.45324887     0.061273297
       2.325e+09     -0.45019421     0.064909205
     2.32625e+09     -0.44835435     0.067279968
      2.3275e+09     -0.44583776     0.070668812
     2.32875e+09     -0.44347122      0.07386216
        2.33e+09     -0.44091565       0.0766203
     2.33125e+09     -0.43960723     0.079743878
      2.3325e+09     -0.43666141     0.083222092
     2.33375e+09     -0.43367256     0.086065925
       2.335e+09     -0.43065471     0.089554485
     2.33625e+09     -0.42819403     0.092412512
      2.3375e+09     -0.42527219     0.096264864
     2.33875e+09      -0.4229208     0.098386878
        2.34e+09     -0.41918956      0.10188792
     2.34125e+09     -0.41650374       0.1042276
      2.3425e+09     -0.41343793      0.10710797
     2.34375e+09     -0.41062188      0.11010211
       2.345e+09      -0.4075556      0.11362298
     2.34625e+09     -0.40419368      0.11605026
      2.3475e+09     -0.40095732      0.11877115
     2.34875e+09     -0.39752486      0.12150959
        2.35e+09     -0.39497016      0.12443595
     2.35125e+09     -0.39187102       0.1272081
      2.3525e+09     -0.38821899      0.12947941
     2.35375e+09     -0.38539757      0.13331055
       2.355e+09      -0.3815382       0.1360826
     2.35625e+09     -0.37780609      0.13869283
      2.3575e+09      -0.3737153      0.14065245
     2.35875e+09     -0.37078979      0.14443186
        2.36e+09     -0.36641254      0.14697252
     2.36125e+09     -0.36293622      0.14919373
      2.3625e+09     -0.35846648      0.15155547
     2.36375e+09     -0.35344876      0.15410264
       2.365e+09     -0.34946285      0.15651752
     2.36625e+09     -0.34545759      0.15851278
      2.3675e+09     -0.33948423      0.15967126
     2.36875e+09     -0.33555479      0.16180593
        2.37e+09     -0.33126917      0.16378198
     2.37125e+09     -0.32669631      0.16459502
      2.3725e+09     -0.32207584      0.16644554
     2.37375e+09     -0.31748712      0.16776896
       2.375e+09     -0.31167754      0.16886606
     2.37625e+09     -0.30796811      0.16968993
      2.3775e+09     -0.30376712       0.1704818
     2.37875e+09     -0.29884835      0.17148309
        2.38e+09     -0.29365147      0.17235966
     2.38125e+09     -0.28902805      0.17270875
      2.3825e+09     -0.28502796      0.17267528
     2.38375e+09     -0.28094914      0.17350117
       2.385e+09      -0.2754686      0.17393504
     2.38625e+09     -0.27056219      0.17262662
      2.3875e+09     -0.26646669      0.17252916
     2.38875e+09      -0.2616653      0.17184716
        2.39e+09     -0.25785181      0.17125645
     2.39125e+09     -0.25383651      0.17106699
      2.3925e+09     -0.24956208      0.17055203
     2.39375e+09     -0.24600091      0.16959999
       2.395e+09     -0.24290306      0.16957248
     2.39625e+09     -0.23886407      0.16947934
      2.3975e+09     -0.23521307      0.16898858
     2.39875e+09     -0.23106687      0.16783408
         2.4e+09     -0.22785544      0.16791892
     2.40125e+09     -0.22400755      0.16644424
      2.4025e+09     -0.22086479      0.16608799
     2.40375e+09     -0.21754642      0.16551537
       2.405e+09     -0.21316868      0.16530574
     2.40625e+09      -0.2101898       0.1643649
      2.4075e+09     -0.20610561       0.1635711
     2.40875e+09     -0.20285338      0.16184018
        2.41e+09     -0.19877238      0.16241942
     2.41125e+09     -0.19508985      0.16019737
      2.4125e+09     -0.19136928       0.1588975
     2.41375e+09     -0.18755315      0.15822154
       2.415e+09     -0.18392108      0.15643499
     2.41625e+09     -0.18054673      0.15464579
      2.4175e+09     -0.17759029      0.15314171
     2.41875e+09     -0.17415832      0.15095778
        2.42e+09     -0.17171378      0.14874011
     2.42125e+09     -0.16902278      0.14880204
      2.4225e+09     -0.16647162      0.14605283
     2.42375e+09     -0.16366017      0.14447291
       2.425e+09     -0.16055375      0.14315111
     2.42625e+09     -0.15757344      0.14224027
      2.4275e+09     -0.15533988      0.14116573
     2.42875e+09     -0.15262647      0.13932296
        2.43e+09     -0.14898725      0.13695251
     2.43125e+09     -0.14692096      0.13610589
      2.4325e+09     -0.14409281      0.13413588
     2.43375e+09     -0.14025516      0.13336757
       2.435e+09     -0.13863717      0.13133678
     2.43625e+09     -0.13498669      0.13013277
      2.4375e+09     -0.13231858      0.12798822
     2.43875e+09     -0.12900697      0.12639311
        2.44e+09     -0.12687364      0.12378618
     2.44125e+09     -0.12317246      0.12199112
      2.4425e+09     -0.12057849      0.11978878
     2.44375e+09     -0.11822623      0.11667742
       2.445e+09     -0.11624661      0.11476757
     2.44625e+09     -0.11378996      0.11203834
      2.4475e+09     -0.11153263      0.11026928
     2.44875e+09     -0.10919058      0.10687947
        2.45e+09     -0.10707407      0.10564479
     2.45125e+09     -0.10462728      0.10244157
      2.4525e+09     -0.10306765     0.099619405
     2.45375e+09     -0.10161714     0.097378569
       2.455e+09     -0.10055307      0.09505731
     2.45625e+09    -0.099252169      0.09275838
      2.4575e+09    -0.097032526     0.089492347
     2.45875e+09    -0.095419033     0.087820577
        2.46e+09    -0.094402817     0.086169611
     2.46125e+09     -0.09252213     0.084423675
      2.4625e+09    -0.090983184     0.082090016
     2.46375e+09    -0.089751461     0.079804311
       2.465e+09    -0.087285333     0.078005454
     2.46625e+09     -0.08579842     0.075721319
      2.4675e+09    -0.083384702     0.073079081
     2.46875e+09    -0.081850754     0.070761976
        2.47e+09    -0.079955852     0.068452553
     2.47125e+09    -0.078114836     0.066615918
      2.4725e+09    -0.075776277      0.06335941
     2.47375e+09    -0.074307503     0.061006955
       2.475e+09    -0.072347403     0.057440837
     2.47625e+09     -0.07108393     0.054750594
      2.4775e+09    -0.068948044     0.051191896
     2.47875e+09     -0.06738202     0.048499075
        2.48e+09    -0.065543534     0.045211976
     2.48125e+09    -0.065292414      0.04183413
      2.4825e+09      -0.0634872     0.037924918
     2.48375e+09    -0.063073641     0.034613739
       2.485e+09    -0.061770807     0.031132927
     2.48625e+09    -0.062146085     0.028321299
      2.4875e+09    -0.062675259     0.024443581
     2.48875e+09    -0.061672963      0.02163282
        2.49e+09    -0.061860049     0.018868419
     2.49125e+09    -0.060689647     0.015696508
      2.4925e+09    -0.061601187     0.013338141
     2.49375e+09    -0.059619609      0.01079392
       2.495e+09    -0.060426272    0.0078028579
     2.49625e+09    -0.059426384    0.0048492693
      2.4975e+09     -0.05941746    0.0015552015
     2.49875e+09    -0.058820861   -0.0010444008
         2.5e+09    -0.058177733   -0.0042705827
     2.50125e+09    -0.058199442   -0.0074901713
      2.5025e+09    -0.058083978    -0.010900656
     2.50375e+09    -0.057426185    -0.014641698
       2.505e+09    -0.058053852    -0.017707973
