! TTR506A,Tektronix,B010426,Application version 2.0.1.4ead5a2e Firmware version 066185400
! 
! Freq ReS11 ImS11
# HZ S RI R 50
        10000000   -0.0019422641   -0.0042021859
        20000000   -0.0020294611   -0.0081869004
        30000000   -0.0020668209    -0.012174795
        40000000   -0.0022187815    -0.016491804
        50000000   -0.0022940957    -0.020557978
        60000000   -0.0024348428    -0.024571347
        70000000   -0.0025736823     -0.02855489
        80000000   -0.0028799848    -0.032722084
        90000000   -0.0033170941    -0.036827408
           1e+08   -0.0034609143     -0.04104377
         1.1e+08   -0.0036904483    -0.045017553
         1.2e+08   -0.0041972543    -0.049018961
         1.3e+08   -0.0044916108    -0.053262181
         1.4e+08   -0.0047982119    -0.057275165
         1.5e+08    -0.005317655    -0.061421438
         1.6e+08   -0.0058701264    -0.065432927
         1.7e+08   -0.0064176872    -0.069638033
         1.8e+08   -0.0069453668    -0.073608095
         1.9e+08   -0.0078589717    -0.077861183
           2e+08   -0.0085248333    -0.082443988
         2.1e+08   -0.0090060779    -0.085968271
         2.2e+08   -0.0098607486    -0.089906178
         2.3e+08    -0.010605983    -0.094010714
         2.4e+08    -0.010803402    -0.098720195
         2.5e+08    -0.011907623     -0.10326199
         2.6e+08    -0.013441412     -0.10705332
         2.7e+08    -0.014395261     -0.11104691
         2.8e+08    -0.015086787     -0.11495306
         2.9e+08    -0.015912918     -0.11951308
           3e+08    -0.017279539     -0.12351139
         3.1e+08    -0.018117045     -0.12765852
         3.2e+08    -0.019294529     -0.13186304
         3.3e+08    -0.020170878     -0.13633472
         3.4e+08     -0.02186309      -0.1403787
         3.5e+08    -0.022952763     -0.14456624
         3.6e+08    -0.024202102     -0.14869588
         3.7e+08    -0.025697176     -0.15293992
         3.8e+08    -0.027244148     -0.15754501
         3.9e+08    -0.029073956      -0.1614713
           4e+08    -0.030318541     -0.16604486
         4.1e+08    -0.031964246     -0.17037843
         4.2e+08    -0.033164332     -0.17407566
         4.3e+08    -0.035342741      -0.1788728
         4.4e+08    -0.037034837     -0.18259853
         4.5e+08    -0.038716276     -0.18753998
         4.6e+08    -0.040390925     -0.19171568
         4.7e+08    -0.042633729     -0.19653028
         4.8e+08    -0.044253433     -0.20035232
         4.9e+08    -0.046635248     -0.20453464
           5e+08    -0.048407358     -0.20943351
         5.1e+08    -0.050343659     -0.21331587
         5.2e+08      -0.0528082     -0.21805207
         5.3e+08    -0.055235686      -0.2227648
         5.4e+08    -0.057532233     -0.22727394
         5.5e+08    -0.060109256     -0.23157379
         5.6e+08    -0.062744817     -0.23601738
         5.7e+08     -0.06542471     -0.24070011
         5.8e+08    -0.067919962      -0.2447077
         5.9e+08    -0.070732896     -0.24964789
           6e+08     -0.07345657     -0.25407156
         6.1e+08    -0.076208112     -0.25871369
         6.2e+08    -0.079193474     -0.26325593
         6.3e+08    -0.082156572     -0.26790734
         6.4e+08    -0.085095141     -0.27211904
         6.5e+08    -0.088197703     -0.27616806
         6.6e+08    -0.091507865     -0.28161856
         6.7e+08    -0.094996977     -0.28587414
         6.8e+08    -0.098136053     -0.29051452
         6.9e+08     -0.10172452      -0.2945927
           7e+08     -0.10557427     -0.29957263
         7.1e+08     -0.10904669     -0.30378623
         7.2e+08     -0.11297537     -0.30889799
         7.3e+08     -0.11719234     -0.31336892
         7.4e+08     -0.12057118     -0.31794027
         7.5e+08     -0.12475014      -0.3225802
         7.6e+08     -0.12932789     -0.32732524
         7.7e+08     -0.13326166     -0.33167458
         7.8e+08      -0.1380605     -0.33628347
         7.9e+08     -0.14244677      -0.3408047
           8e+08     -0.14780494      -0.3458259
         8.1e+08     -0.15213731     -0.35012942
         8.2e+08      -0.1567148     -0.35518665
         8.3e+08      -0.1626555     -0.35926639
         8.4e+08     -0.16687225     -0.36411142
         8.5e+08     -0.17167495     -0.36860389
         8.6e+08     -0.17825984     -0.37303243
         8.7e+08     -0.18334816      -0.3778171
         8.8e+08     -0.18969893     -0.38180554
         8.9e+08     -0.19512986      -0.3865233
           9e+08     -0.20094721     -0.39056305
         9.1e+08     -0.20635883     -0.39543089
         9.2e+08     -0.21313609     -0.39881783
         9.3e+08      -0.2195873     -0.40343689
         9.4e+08     -0.22608344      -0.4069314
         9.5e+08      -0.2320986       -0.411788
         9.6e+08      -0.2391566      -0.4156616
         9.7e+08     -0.24571414     -0.42037494
         9.8e+08     -0.25339415     -0.42358676
         9.9e+08     -0.26061656     -0.42780076
           1e+09     -0.26823836     -0.43149251
        1.01e+09     -0.27629195     -0.43541833
        1.02e+09     -0.28375195     -0.43801684
        1.03e+09     -0.29163655     -0.44257999
        1.04e+09     -0.29855626     -0.44570338
        1.05e+09     -0.30884004      -0.4490869
        1.06e+09     -0.31711804     -0.45269113
        1.07e+09     -0.32619084     -0.45549272
        1.08e+09     -0.33420329     -0.45807222
        1.09e+09     -0.34315857     -0.46080821
         1.1e+09     -0.35315962     -0.46469046
        1.11e+09     -0.36106262     -0.46646599
        1.12e+09     -0.37119331     -0.46886167
        1.13e+09     -0.38142637     -0.47100558
        1.14e+09     -0.39100525     -0.47271989
        1.15e+09     -0.40204563       -0.475275
        1.16e+09     -0.41089366     -0.47551362
        1.17e+09     -0.42262542     -0.47778228
        1.18e+09     -0.43252914     -0.47865239
        1.19e+09     -0.44359707     -0.47890562
         1.2e+09      -0.4546775     -0.48036193
        1.21e+09      -0.4658633     -0.48003392
        1.22e+09     -0.47747314     -0.48118493
        1.23e+09     -0.48887467     -0.48032611
        1.24e+09     -0.50005517     -0.47985915
        1.25e+09       -0.512278     -0.47984885
        1.26e+09     -0.52453545     -0.47779507
        1.27e+09     -0.53531291     -0.47683218
        1.28e+09     -0.54911619      -0.4760479
        1.29e+09     -0.56044527     -0.47450596
         1.3e+09     -0.57261432     -0.47053869
        1.31e+09     -0.58530182     -0.46892179
        1.32e+09     -0.59764758     -0.46577744
        1.33e+09     -0.61045626     -0.46351181
        1.34e+09     -0.62303701     -0.45957891
        1.35e+09      -0.6353098     -0.45533316
        1.36e+09     -0.64807607     -0.44967353
        1.37e+09     -0.66105457     -0.44502933
        1.38e+09      -0.6733851      -0.4397587
        1.39e+09     -0.68533299     -0.43437786
         1.4e+09     -0.69814253     -0.42877034
        1.41e+09     -0.71043058     -0.42118064
        1.42e+09     -0.72290649     -0.41450795
        1.43e+09     -0.73529148     -0.40662196
        1.44e+09      -0.7465257     -0.39923896
        1.45e+09     -0.75889514     -0.39053325
        1.46e+09     -0.77014896     -0.38144084
        1.47e+09     -0.78135526     -0.37321277
        1.48e+09     -0.79259635     -0.36271764
        1.49e+09     -0.80334973     -0.35288296
         1.5e+09     -0.81529263     -0.34374254
        1.51e+09      -0.8250921     -0.33196268
        1.52e+09     -0.83523072     -0.32118408
        1.53e+09     -0.84578621     -0.30891412
        1.54e+09     -0.85451898     -0.29654678
        1.55e+09     -0.86455036      -0.2847866
        1.56e+09     -0.87349618     -0.27145723
        1.57e+09     -0.88143418     -0.25964796
        1.58e+09     -0.89030462     -0.24615059
        1.59e+09      -0.8969346     -0.23199976
         1.6e+09     -0.90361054     -0.21801437
        1.61e+09     -0.91029013     -0.20555221
        1.62e+09     -0.91663813     -0.18958177
        1.63e+09     -0.92196859     -0.17508507
        1.64e+09      -0.9279316     -0.16122373
        1.65e+09     -0.93355993     -0.14479311
        1.66e+09     -0.93788332     -0.13030348
        1.67e+09     -0.94158622     -0.11496322
        1.68e+09     -0.94481028     -0.10017111
        1.69e+09     -0.94729955    -0.084628899
         1.7e+09     -0.95170958    -0.068811991
        1.71e+09     -0.95011909     -0.05369307
        1.72e+09     -0.95338888    -0.038939871
        1.73e+09     -0.95358641    -0.023895032
        1.74e+09     -0.95489032   -0.0074726651
        1.75e+09     -0.95449037    0.0071954713
        1.76e+09     -0.95127814      0.02297145
        1.77e+09     -0.95217138     0.038488329
        1.78e+09     -0.94962475       0.0530979
        1.79e+09     -0.94937366     0.068125861
         1.8e+09     -0.94681972     0.082351179
        1.81e+09     -0.94300787     0.095922447
        1.82e+09     -0.94010879      0.11010601
        1.83e+09     -0.93502057      0.12526513
        1.84e+09     -0.93213235      0.13853685
        1.85e+09     -0.92746173      0.15171237
        1.86e+09     -0.92191635      0.16501873
        1.87e+09     -0.91685884      0.17771816
        1.88e+09     -0.91188349      0.19050742
        1.89e+09     -0.90681383       0.2034882
         1.9e+09     -0.89959122      0.21484896
        1.91e+09     -0.89384068      0.22629272
        1.92e+09     -0.88759598      0.23756512
        1.93e+09      -0.8792604      0.24841152
        1.94e+09     -0.87363902      0.26000192
        1.95e+09     -0.86642137      0.27043994
        1.96e+09     -0.85840744       0.2796309
        1.97e+09     -0.85129011      0.29008806
        1.98e+09     -0.84362921       0.2994327
        1.99e+09     -0.83522703      0.30732717
           2e+09     -0.82697376      0.31674861
        2.01e+09     -0.81820181      0.32550602
        2.02e+09     -0.80947906      0.33266966
        2.03e+09     -0.80132707      0.34106747
        2.04e+09     -0.79330922      0.34854257
        2.05e+09     -0.78641306      0.35444222
        2.06e+09      -0.7762792      0.36302821
        2.07e+09     -0.76774155       0.3695669
        2.08e+09      -0.7606733      0.37572052
        2.09e+09     -0.75123954      0.38106493
         2.1e+09      -0.7420961      0.38799679
        2.11e+09     -0.73296509      0.39239719
        2.12e+09     -0.72565466       0.3982849
        2.13e+09     -0.71682648      0.40237979
        2.14e+09     -0.70831701      0.40881197
        2.15e+09     -0.69970119       0.4126603
        2.16e+09     -0.69177497      0.41674138
        2.17e+09     -0.68282548      0.42087582
        2.18e+09     -0.67420682      0.42439436
        2.19e+09     -0.66651911      0.42839743
         2.2e+09     -0.65796016      0.43279154
        2.21e+09     -0.65118579      0.43486688
        2.22e+09     -0.64249212      0.43867709
        2.23e+09     -0.63336253      0.44083931
        2.24e+09     -0.62658374      0.44433556
        2.25e+09      -0.6187183      0.44598164
        2.26e+09     -0.61074949      0.44900485
        2.27e+09     -0.60302139      0.45106264
        2.28e+09     -0.59533765      0.45301778
        2.29e+09     -0.58692976       0.4547649
         2.3e+09     -0.57984134      0.45631899
        2.31e+09     -0.57234753      0.45791991
        2.32e+09      -0.5653705      0.45790903
        2.33e+09     -0.55723549      0.46063077
        2.34e+09     -0.55109574      0.46156199
        2.35e+09     -0.54438476      0.46242384
        2.36e+09     -0.53618135      0.46406701
        2.37e+09     -0.53066618      0.46515272
        2.38e+09     -0.52335497      0.46548804
        2.39e+09     -0.51730755      0.46595614
         2.4e+09       -0.509607      0.46610306
        2.41e+09     -0.50305344      0.46638188
        2.42e+09     -0.49706833      0.46631982
        2.43e+09     -0.49062343      0.46630518
        2.44e+09      -0.4843294      0.46740722
        2.45e+09      -0.4784877      0.46658404
        2.46e+09     -0.47154897      0.46615217
        2.47e+09     -0.46583936      0.46579895
        2.48e+09     -0.46089283      0.46646167
        2.49e+09     -0.45435568      0.46631104
         2.5e+09     -0.44892805      0.46519999
        2.51e+09     -0.44315869       0.4645383
        2.52e+09     -0.43732094      0.46400999
        2.53e+09     -0.43156377      0.46359249
        2.54e+09     -0.42623553      0.46222496
        2.55e+09     -0.42049987      0.46249481
        2.56e+09     -0.41544625      0.46239834
        2.57e+09     -0.40989607       0.4607558
        2.58e+09     -0.40465343      0.45969996
        2.59e+09     -0.40001173      0.45904708
         2.6e+09     -0.39468561      0.45779407
        2.61e+09     -0.39012993      0.45762266
        2.62e+09     -0.38576501      0.45681114
        2.63e+09     -0.38030589      0.45565973
        2.64e+09     -0.37590329      0.45423829
        2.65e+09     -0.37120033      0.45344396
        2.66e+09     -0.36634833      0.45207036
        2.67e+09     -0.36259815      0.45052834
        2.68e+09     -0.35857282      0.45013001
        2.69e+09     -0.35388577      0.44861293
         2.7e+09     -0.34969054      0.44717116
        2.71e+09      -0.3453737      0.44648255
        2.72e+09     -0.34145683      0.44519707
        2.73e+09     -0.33766721      0.44355032
        2.74e+09     -0.33335162      0.44231304
        2.75e+09     -0.33010375      0.44069925
        2.76e+09     -0.32615113       0.4396732
        2.77e+09     -0.32200145      0.43810485
        2.78e+09     -0.31814514       0.4376124
        2.79e+09     -0.31520074      0.43488583
         2.8e+09     -0.31099878      0.43401862
        2.81e+09     -0.30811606      0.43302614
        2.82e+09     -0.30430444      0.43090793
        2.83e+09     -0.30070862      0.43026273
        2.84e+09     -0.29747251       0.4277872
        2.85e+09     -0.29417275      0.42713569
        2.86e+09     -0.29070749      0.42505535
        2.87e+09      -0.2873567      0.42424079
        2.88e+09     -0.28400499      0.42306609
        2.89e+09     -0.28107899      0.42138662
         2.9e+09     -0.27704267      0.42011735
        2.91e+09      -0.2746133      0.41789891
        2.92e+09     -0.27134126      0.41541609
        2.93e+09     -0.26840193      0.41453832
        2.94e+09     -0.26609105       0.4138405
        2.95e+09     -0.26243996      0.41169532
        2.96e+09     -0.25940878      0.40974377
        2.97e+09     -0.25640095       0.4079757
        2.98e+09     -0.25429627      0.40658466
        2.99e+09     -0.25082389      0.40610112
           3e+09     -0.24894631      0.40477163
        3.01e+09     -0.24586593      0.40175588
        3.02e+09     -0.24267332      0.40054421
        3.03e+09     -0.24019993      0.39897944
        3.04e+09     -0.23754588      0.39800465
        3.05e+09     -0.23424897      0.39640424
        3.06e+09     -0.23240726      0.39461376
        3.07e+09     -0.22960072       0.3931652
        3.08e+09     -0.22850196      0.39171421
        3.09e+09     -0.22509275      0.39077031
         3.1e+09      -0.2226518      0.38873257
        3.11e+09     -0.22116213      0.38815953
        3.12e+09     -0.21853825      0.38595183
        3.13e+09     -0.21653449      0.38338336
        3.14e+09     -0.21332925      0.38338438
        3.15e+09     -0.21195692      0.38236778
        3.16e+09     -0.20944692      0.38000542
        3.17e+09     -0.20752969      0.37856466
        3.18e+09     -0.20592561      0.37759106
        3.19e+09     -0.20362571      0.37638361
         3.2e+09     -0.20095918       0.3743265
        3.21e+09      -0.1995461      0.37320517
        3.22e+09     -0.19721419      0.37174385
        3.23e+09     -0.19472501      0.36981093
        3.24e+09      -0.1933727      0.36842258
        3.25e+09     -0.19157264      0.36657463
        3.26e+09     -0.19002371      0.36462864
        3.27e+09     -0.18892855      0.36449636
        3.28e+09     -0.18667478      0.36250383
        3.29e+09     -0.18483997       0.3604948
         3.3e+09      -0.1830616      0.35998745
        3.31e+09     -0.18179999      0.35892193
        3.32e+09     -0.17970022      0.35667183
        3.33e+09     -0.17824827      0.35524446
        3.34e+09     -0.17620765      0.35364683
        3.35e+09     -0.17477396      0.35223677
        3.36e+09     -0.17356012       0.3508877
        3.37e+09     -0.17102059      0.34839805
        3.38e+09        -0.16975      0.34721309
        3.39e+09     -0.16912391      0.34652843
         3.4e+09     -0.16602438      0.34522781
        3.41e+09     -0.16543196      0.34382618
        3.42e+09      -0.1630837      0.34173879
        3.43e+09     -0.16224696      0.34082031
        3.44e+09     -0.15991183      0.33981589
        3.45e+09     -0.15908075      0.33802963
        3.46e+09     -0.15716862      0.33647389
        3.47e+09      -0.1551913      0.33477973
        3.48e+09     -0.15405976      0.33417727
        3.49e+09     -0.15338904      0.33194444
         3.5e+09     -0.14978201      0.33025652
        3.51e+09     -0.15040359      0.32979653
        3.52e+09     -0.14794239      0.32689704
        3.53e+09     -0.14649327      0.32704777
        3.54e+09     -0.14567683      0.32461711
        3.55e+09     -0.14324558       0.3241749
        3.56e+09     -0.14165004       0.3214989
        3.57e+09     -0.14084175      0.32064975
        3.58e+09      -0.1391809      0.32017387
        3.59e+09     -0.13816021      0.31842791
         3.6e+09     -0.13595284      0.31713296
        3.61e+09     -0.13456458      0.31583471
        3.62e+09     -0.13308566       0.3141489
        3.63e+09     -0.13169039      0.31367364
        3.64e+09     -0.13070181      0.31120382
        3.65e+09     -0.12876051      0.31057756
        3.66e+09     -0.12871263      0.30978919
        3.67e+09     -0.12681198      0.30787835
        3.68e+09     -0.12617142      0.30673606
        3.69e+09     -0.12512801      0.30551934
         3.7e+09     -0.12324438        0.303885
        3.71e+09     -0.12292202      0.30260285
        3.72e+09     -0.12121667      0.30265567
        3.73e+09     -0.12056248      0.30059168
        3.74e+09     -0.11925752      0.29922807
        3.75e+09     -0.11808871      0.29819255
        3.76e+09     -0.11759462      0.29619411
        3.77e+09     -0.11625226      0.29628739
        3.78e+09     -0.11558654      0.29479534
        3.79e+09      -0.1147462      0.29312679
         3.8e+09     -0.11453851       0.2919189
        3.81e+09     -0.11305347      0.29046428
        3.82e+09     -0.11131523      0.28933392
        3.83e+09     -0.11130087      0.28763315
        3.84e+09     -0.10948614      0.28719901
        3.85e+09     -0.10919421      0.28511285
        3.86e+09     -0.10847761      0.28437058
        3.87e+09     -0.10699933      0.28325748
        3.88e+09     -0.10597142      0.28106806
        3.89e+09     -0.10595801      0.28030375
         3.9e+09     -0.10428541      0.27962467
        3.91e+09     -0.10443985      0.27893198
        3.92e+09     -0.10240541      0.27696423
        3.93e+09     -0.10282678      0.27545105
        3.94e+09     -0.10109837      0.27481746
        3.95e+09    -0.099928623      0.27326954
        3.96e+09    -0.099598853      0.27250137
        3.97e+09    -0.099334299      0.27184173
        3.98e+09    -0.097709204      0.26985339
        3.99e+09    -0.097103917      0.26833923
           4e+09     -0.09726357      0.26744918
        4.01e+09    -0.094939544      0.26467628
