! TTR506A,Tektronix,B010426,Application version 2.0.1.4ead5a2e Firmware version 066185400
! 
! Freq ReS11 ImS11
# HZ S RI R 50
        10000000   -0.0029914784    0.0022292363
        20000000   -0.0027908115    0.0047472822
        30000000    -0.002543899    0.0069585147
        40000000   -0.0023247631    0.0089380114
        50000000   -0.0021039845     0.011134046
        60000000   -0.0019698343     0.013138767
        70000000   -0.0017543485      0.01509405
        80000000   -0.0016047163     0.017078689
        90000000   -0.0014621779     0.019152988
           1e+08   -0.0010994355     0.021052614
         1.1e+08   -0.0010463667     0.023212931
         1.2e+08    -0.001008865     0.025140265
         1.3e+08  -0.00079773549     0.026921133
         1.4e+08  -0.00044008088     0.028826548
         1.5e+08  -0.00031649482     0.030904902
         1.6e+08  -0.00027356579     0.032701112
         1.7e+08   0.00011129807     0.034763296
         1.8e+08   0.00029908126     0.036672933
         1.9e+08   0.00028425527     0.038719791
           2e+08   0.00084606022     0.040989951
         2.1e+08     0.001169346     0.042534115
         2.2e+08    0.0014642299     0.044902005
         2.3e+08    0.0018574364     0.046284425
         2.4e+08    0.0015948695     0.048432651
         2.5e+08    0.0021083142     0.049698417
         2.6e+08    0.0024021589     0.051643947
         2.7e+08    0.0025301585     0.053593992
         2.8e+08    0.0025752611     0.055801999
         2.9e+08    0.0037572423      0.05759796
           3e+08    0.0038462474     0.059610118
         3.1e+08    0.0038951654     0.061851406
         3.2e+08    0.0044320652     0.063407141
         3.3e+08    0.0050489391     0.065338068
         3.4e+08    0.0053981229     0.066720411
         3.5e+08    0.0059113181     0.069144667
         3.6e+08    0.0059892832     0.071662392
         3.7e+08    0.0069721756     0.072566493
         3.8e+08    0.0068985691     0.074775818
         3.9e+08    0.0077927861     0.076902256
           4e+08    0.0081509925     0.078834154
         4.1e+08    0.0090074131     0.080550083
         4.2e+08    0.0098662953     0.082676778
         4.3e+08     0.010126595     0.084702827
         4.4e+08     0.010605346     0.087116147
         4.5e+08     0.011623327     0.088474716
         4.6e+08      0.01198791     0.090632983
         4.7e+08     0.013011551     0.092432047
         4.8e+08      0.01397358     0.094201253
         4.9e+08     0.014106772     0.097073374
           5e+08     0.014793624     0.098480108
         5.1e+08      0.01552841       0.1009506
         5.2e+08      0.01645049       0.1031146
         5.3e+08     0.017500439      0.10489459
         5.4e+08     0.018180571      0.10723787
         5.5e+08     0.018727992      0.10972223
         5.6e+08     0.019355586      0.11179459
         5.7e+08     0.020480901      0.11366424
         5.8e+08     0.021518588      0.11590874
         5.9e+08     0.022083581       0.1181475
           6e+08     0.023105749      0.12054552
         6.1e+08     0.024411721      0.12255284
         6.2e+08     0.024889933      0.12476549
         6.3e+08     0.025840619      0.12667114
         6.4e+08     0.026927994      0.12945987
         6.5e+08     0.027873979      0.13190276
         6.6e+08     0.028378207       0.1339932
         6.7e+08     0.029515732      0.13640171
         6.8e+08     0.030872439       0.1393345
         6.9e+08     0.031737052      0.14139891
           7e+08     0.033159979      0.14389832
         7.1e+08     0.033883025      0.14574351
         7.2e+08     0.035254716      0.14849931
         7.3e+08     0.036130373      0.15141494
         7.4e+08     0.037787026      0.15391614
         7.5e+08     0.038621323       0.1558447
         7.6e+08     0.039643152      0.15836044
         7.7e+08     0.040812308      0.16151817
         7.8e+08     0.041813339      0.16361486
         7.9e+08     0.043461799      0.16635756
           8e+08     0.045245744      0.16852605
         8.1e+08     0.045861446      0.17144958
         8.2e+08     0.047679822      0.17418996
         8.3e+08     0.048823686      0.17640079
         8.4e+08     0.050156453      0.17864786
         8.5e+08     0.051287684      0.18181902
         8.6e+08     0.052929337        0.184562
         8.7e+08     0.054145409      0.18705219
         8.8e+08     0.056140075       0.1898298
         8.9e+08     0.057958541      0.19283827
           9e+08     0.059450001      0.19525529
         9.1e+08     0.060928371      0.19876268
         9.2e+08     0.062627669      0.20155784
         9.3e+08     0.064298131      0.20391342
         9.4e+08     0.066172569      0.20677998
         9.5e+08     0.068056569      0.20963886
         9.6e+08      0.07035883      0.21215311
         9.7e+08     0.072773942       0.2152449
         9.8e+08     0.073850072       0.2179922
         9.9e+08     0.076025565      0.22092134
           1e+09     0.078176517      0.22417192
        1.01e+09     0.080059652      0.22724731
        1.02e+09     0.082678978      0.23017589
        1.03e+09     0.085271586      0.23281511
        1.04e+09     0.087619793      0.23635342
        1.05e+09     0.090240419      0.23932405
        1.06e+09     0.092840824      0.24225945
        1.07e+09     0.095167005      0.24513766
        1.08e+09     0.098098146      0.24864432
        1.09e+09      0.10101096      0.25129075
         1.1e+09      0.10427436      0.25448081
        1.11e+09      0.10765122      0.25814457
        1.12e+09      0.11007211      0.26156647
        1.13e+09      0.11342805      0.26497472
        1.14e+09       0.1169022      0.26831217
        1.15e+09      0.11996803      0.27117392
        1.16e+09      0.12370003       0.2755882
        1.17e+09      0.12711738      0.27874567
        1.18e+09      0.13190656      0.28226511
        1.19e+09      0.13553789      0.28570301
         1.2e+09      0.13892263      0.28940062
        1.21e+09      0.14324736      0.29278226
        1.22e+09      0.14786609      0.29677396
        1.23e+09      0.15243798      0.30026161
        1.24e+09      0.15698771      0.30319241
        1.25e+09      0.16160111      0.30803421
        1.26e+09       0.1665993      0.31083484
        1.27e+09      0.17231328      0.31537724
        1.28e+09      0.17688766      0.31847908
        1.29e+09      0.18263089      0.32278869
         1.3e+09      0.18954134      0.32614618
        1.31e+09      0.19546367      0.33021366
        1.32e+09      0.20098548      0.33389567
        1.33e+09      0.20894383      0.33764366
        1.34e+09      0.21481611      0.34185867
        1.35e+09      0.22178941      0.34546066
        1.36e+09      0.22908086      0.34927266
        1.37e+09      0.23630847      0.35298262
        1.38e+09      0.24428236      0.35615531
        1.39e+09      0.25327068      0.36027036
         1.4e+09      0.26162537      0.36353097
        1.41e+09      0.27075528      0.36713332
        1.42e+09      0.28075561      0.37005458
        1.43e+09      0.28884796      0.37411221
        1.44e+09      0.30019423      0.37736905
        1.45e+09      0.31070153      0.38004562
        1.46e+09      0.32087065      0.38270855
        1.47e+09      0.33289078      0.38609958
        1.48e+09      0.34436762       0.3872911
        1.49e+09      0.35672874      0.38927549
         1.5e+09       0.3703034      0.39131118
        1.51e+09      0.38383581      0.39347759
        1.52e+09      0.39749218      0.39443604
        1.53e+09      0.41225843      0.39518384
        1.54e+09      0.42716688      0.39462335
        1.55e+09      0.44319111      0.39546495
        1.56e+09      0.45900453      0.39376766
        1.57e+09      0.47550629      0.39230472
        1.58e+09      0.49288136      0.38925173
        1.59e+09      0.51122205      0.38756458
         1.6e+09      0.53005736      0.38327435
        1.61e+09      0.54844662      0.37750217
        1.62e+09      0.56803718      0.37266743
        1.63e+09      0.58778836      0.36500284
        1.64e+09      0.60825134      0.35633584
        1.65e+09       0.6304726       0.3453651
        1.66e+09       0.6496096      0.33454772
        1.67e+09      0.67121813      0.32207065
        1.68e+09      0.69113114      0.30646909
        1.69e+09      0.71223082      0.28999516
         1.7e+09      0.73270171      0.27085711
        1.71e+09      0.75263621      0.25070995
        1.72e+09      0.77195527      0.22883317
        1.73e+09      0.78972248      0.20523424
        1.74e+09      0.80594609      0.17822894
        1.75e+09      0.82082548      0.15002136
        1.76e+09      0.83393802      0.12018521
        1.77e+09      0.84559862     0.089505052
        1.78e+09      0.85459373     0.056174108
        1.79e+09      0.86131912     0.022515929
         1.8e+09      0.86609738    -0.013320772
        1.81e+09      0.86750251    -0.047360936
        1.82e+09      0.86479028    -0.083447144
        1.83e+09      0.85991771      -0.1197661
        1.84e+09      0.85357354     -0.15531374
        1.85e+09      0.84069447      -0.1890022
        1.86e+09      0.82869603     -0.22356531
        1.87e+09      0.81149626     -0.25551639
        1.88e+09      0.79447265     -0.28470664
        1.89e+09      0.77292595     -0.31353539
         1.9e+09      0.75220159     -0.34016773
        1.91e+09      0.72613468     -0.36367647
        1.92e+09       0.7019547     -0.38534624
        1.93e+09      0.67613576     -0.40567124
        1.94e+09      0.65051331     -0.42265714
        1.95e+09      0.62326533      -0.4350528
        1.96e+09      0.59659501     -0.44989524
        1.97e+09      0.56932297     -0.45939361
        1.98e+09      0.54321105     -0.46792673
        1.99e+09        0.517215      -0.4728956
           2e+09      0.49124174       -0.477202
        2.01e+09      0.46563139        -0.47987
        2.02e+09       0.4425041     -0.48231464
        2.03e+09       0.4187358     -0.48263476
        2.04e+09      0.39729269     -0.48176671
        2.05e+09      0.37461538      -0.4781838
        2.06e+09      0.35456306     -0.47655228
        2.07e+09      0.33503074     -0.47264554
        2.08e+09       0.3160503     -0.46774633
        2.09e+09       0.2984251      -0.4624548
         2.1e+09      0.27978293      -0.4566759
        2.11e+09      0.26528348     -0.45135793
        2.12e+09      0.25009855        -0.44353
        2.13e+09      0.23521831     -0.43744678
        2.14e+09      0.22163711     -0.43098826
        2.15e+09      0.20906255     -0.42396345
        2.16e+09      0.19636251      -0.4157335
        2.17e+09      0.18470703     -0.40899524
        2.18e+09      0.17455624     -0.40114192
        2.19e+09      0.16391192     -0.39312486
         2.2e+09      0.15384215     -0.38576753
        2.21e+09      0.14355686     -0.37900472
        2.22e+09      0.13695708     -0.37150236
        2.23e+09       0.1278724     -0.36375682
        2.24e+09      0.12028444     -0.35625104
        2.25e+09      0.11226911     -0.34910495
        2.26e+09      0.10592162     -0.34210317
        2.27e+09     0.099210722     -0.33475396
        2.28e+09     0.093764266     -0.32681701
        2.29e+09     0.087159093     -0.32072545
         2.3e+09     0.082507964      -0.3135994
        2.31e+09     0.076555905     -0.30714117
        2.32e+09     0.072045789     -0.30087636
        2.33e+09      0.06716533     -0.29387998
        2.34e+09     0.063162408     -0.28615187
        2.35e+09     0.059098332     -0.28104199
        2.36e+09     0.055432494     -0.27487236
        2.37e+09     0.051865271     -0.26925692
        2.38e+09     0.048082623     -0.26239988
        2.39e+09     0.044558276     -0.25708183
         2.4e+09     0.041881913     -0.25051955
        2.41e+09     0.038735249     -0.24561117
        2.42e+09       0.0356906     -0.23974771
        2.43e+09     0.032717188     -0.23438447
        2.44e+09     0.030962058     -0.22818727
        2.45e+09     0.028074958     -0.22416576
        2.46e+09     0.025758604     -0.21823836
        2.47e+09     0.023781701     -0.21377332
        2.48e+09     0.021065507     -0.20860946
        2.49e+09     0.019782813     -0.20335991
         2.5e+09      0.01771308     -0.19845966
        2.51e+09     0.016381916     -0.19450228
        2.52e+09      0.01453149     -0.18976766
        2.53e+09     0.013062167      -0.1850094
        2.54e+09     0.012155108     -0.18084959
        2.55e+09     0.010680858     -0.17576795
        2.56e+09    0.0090354221     -0.17164102
        2.57e+09    0.0075574628     -0.16797083
        2.58e+09    0.0065042711     -0.16324482
        2.59e+09    0.0057389813     -0.15909861
         2.6e+09    0.0046656556     -0.15475243
        2.61e+09    0.0033510612     -0.15128625
        2.62e+09    0.0022711128     -0.14642943
        2.63e+09    0.0018393139     -0.14313535
        2.64e+09   0.00013439398     -0.13962874
        2.65e+09   0.00013428766     -0.13545912
        2.66e+09  -0.00073917835     -0.13213495
        2.67e+09   -0.0012207227     -0.12825329
        2.68e+09   -0.0028961962     -0.12475278
        2.69e+09   -0.0025690429     -0.12150974
         2.7e+09   -0.0030317971     -0.11802132
        2.71e+09   -0.0040552541     -0.11411228
        2.72e+09   -0.0045563967     -0.11170045
        2.73e+09   -0.0055852796     -0.10824822
        2.74e+09   -0.0058912954     -0.10504494
        2.75e+09    -0.006263007     -0.10223676
        2.76e+09   -0.0066267798    -0.099167978
        2.77e+09   -0.0073735306    -0.096630201
        2.78e+09   -0.0068101453    -0.091976169
        2.79e+09   -0.0077100368    -0.089601135
         2.8e+09   -0.0077598688    -0.086328085
        2.81e+09   -0.0072868833    -0.082889818
        2.82e+09   -0.0076814317    -0.080567127
        2.83e+09   -0.0082157524    -0.077518679
        2.84e+09   -0.0086274855    -0.074292544
        2.85e+09   -0.0086643677    -0.072838983
        2.86e+09   -0.0082493571     -0.06945038
        2.87e+09   -0.0079791096    -0.066137274
        2.88e+09   -0.0079461258    -0.063806277
        2.89e+09   -0.0081768345    -0.061690111
         2.9e+09    -0.008264494    -0.058743123
        2.91e+09   -0.0078334343    -0.056545979
        2.92e+09   -0.0081568888    -0.054712741
        2.93e+09   -0.0075872398     -0.05240909
        2.94e+09   -0.0079808037     -0.04911636
        2.95e+09   -0.0069471095     -0.04700877
        2.96e+09   -0.0069082081    -0.044566778
        2.97e+09   -0.0069341137    -0.043325149
        2.98e+09   -0.0070580831    -0.040939432
        2.99e+09   -0.0062948164    -0.037580502
           3e+09   -0.0058138154    -0.035497406
        3.01e+09   -0.0061967636     -0.03335883
        3.02e+09   -0.0051064202    -0.030744502
        3.03e+09   -0.0053692196    -0.028399088
        3.04e+09   -0.0055169383    -0.026555201
        3.05e+09   -0.0042386052    -0.024489508
        3.06e+09   -0.0047537039     -0.02215509
        3.07e+09   -0.0043284909    -0.019877048
        3.08e+09   -0.0037397073    -0.017214712
        3.09e+09   -0.0037843597    -0.015492069
         3.1e+09   -0.0030572038    -0.014055892
        3.11e+09   -0.0038826553     -0.01060015
        3.12e+09   -0.0029922255   -0.0095038016
        3.13e+09   -0.0035810826   -0.0082866721
        3.14e+09   -0.0019431767   -0.0049212195
        3.15e+09   -0.0020732894   -0.0026333681
        3.16e+09   -0.0015112058   -0.0018326697
        3.17e+09   -0.0021235921    0.0014460022
        3.18e+09   -0.0013238846    0.0029134728
        3.19e+09   -0.0012742336    0.0051384841
         3.2e+09   -0.0010148485    0.0068671808
        3.21e+09  -0.00033318978    0.0090734584
        3.22e+09  -0.00063876915     0.010653377
        3.23e+09    0.0001275565     0.012626127
        3.24e+09   0.00042466715     0.014704689
        3.25e+09  -0.00036904447     0.015718861
        3.26e+09   0.00042277201     0.017426942
        3.27e+09   0.00086801714     0.019759289
        3.28e+09   0.00032307062      0.02083968
        3.29e+09    0.0013962867     0.022913133
         3.3e+09    0.0011323465     0.024916947
        3.31e+09    0.0012980686     0.026391073
        3.32e+09    0.0010142176     0.027408884
        3.33e+09    0.0010001097     0.029203147
        3.34e+09    0.0019919277     0.031448284
        3.35e+09    0.0020664355     0.032636297
        3.36e+09    0.0022464312     0.034751467
        3.37e+09    0.0029950917     0.035592991
        3.38e+09    0.0033741754     0.037357338
        3.39e+09     0.003564841     0.039410157
         3.4e+09    0.0041707369     0.040978658
        3.41e+09     0.003809716     0.042035523
        3.42e+09     0.004536622     0.042605439
        3.43e+09    0.0051642964     0.043951749
        3.44e+09    0.0048513949     0.046350957
        3.45e+09    0.0050116663     0.047726854
        3.46e+09    0.0059703245     0.048856318
        3.47e+09    0.0066291308     0.050788246
        3.48e+09    0.0069463498     0.052430457
        3.49e+09    0.0057911307     0.052950258
         3.5e+09    0.0074887565     0.054108774
        3.51e+09    0.0073092195      0.05600612
        3.52e+09    0.0086764084     0.055839154
        3.53e+09    0.0089439214     0.058364253
        3.54e+09    0.0092644936     0.058822534
        3.55e+09        0.010177     0.061083341
        3.56e+09     0.011138597     0.062007952
        3.57e+09     0.010461668     0.063350602
        3.58e+09     0.011913795       0.0649201
        3.59e+09     0.011759866     0.066392268
         3.6e+09      0.01329542     0.067075921
        3.61e+09      0.01447477     0.069259466
        3.62e+09      0.01391681     0.070770327
        3.63e+09     0.014766372     0.071190257
        3.64e+09      0.01548705     0.072661995
        3.65e+09     0.016014573     0.074073809
        3.66e+09     0.015460495     0.076038207
        3.67e+09     0.017357044     0.077048585
        3.68e+09     0.017235377     0.078257774
        3.69e+09        0.017611     0.078946224
         3.7e+09     0.018979275     0.080271325
        3.71e+09     0.018914724     0.081532145
        3.72e+09     0.019861989     0.083567415
        3.73e+09     0.020493919     0.084931318
        3.74e+09      0.02116564     0.085548926
        3.75e+09     0.021345199     0.086566659
        3.76e+09     0.021550709     0.088530327
        3.77e+09     0.022555146      0.08983342
        3.78e+09     0.023340536     0.090913529
        3.79e+09     0.022938306     0.091240292
         3.8e+09     0.022690489       0.0927747
        3.81e+09     0.024520033     0.094298926
        3.82e+09     0.025525508     0.095409013
        3.83e+09     0.024795685      0.09644268
        3.84e+09     0.025879262     0.097223467
        3.85e+09     0.026689586     0.098158047
        3.86e+09     0.026912554      0.09996959
        3.87e+09      0.02731758      0.10202445
        3.88e+09     0.028593511       0.1021454
        3.89e+09     0.028455443      0.10386249
         3.9e+09     0.028919269      0.10534733
        3.91e+09     0.028188744       0.1060776
        3.92e+09     0.029725314      0.10711052
        3.93e+09     0.029975021      0.10757046
        3.94e+09     0.031430354      0.10997541
        3.95e+09      0.03171503      0.11041038
        3.96e+09     0.031513184      0.11104183
        3.97e+09     0.032771627      0.11254859
        3.98e+09     0.033084539      0.11363399
        3.99e+09     0.033344241      0.11394093
           4e+09     0.033998936      0.11531936
        4.01e+09     0.035465908      0.11577172
